Sample in Buffer,Sample in Window,TRIGGER,Aquila_SoC/RISCV_CORE0/Fetch/pc_o[31:0],Aquila_SoC/RISCV_CORE0/Register_File/x_reg[10]_88[31:0],Aquila_SoC/RISCV_CORE0/Register_File/x_reg[15]_93[31:0],Aquila_SoC/RISCV_CORE0/Register_File/x_reg[14]_92[31:0],Aquila_SoC/RISCV_CORE0/Register_File/x_reg[11]_89[31:0],Aquila_SoC/RISCV_CORE0/Execute/stall_i
Radix - UNSIGNED,UNSIGNED,UNSIGNED,HEX,HEX,HEX,HEX,HEX,HEX
0,0,0,0000216c,12f9d463,00010000,00000000,00000000,0
1,1,0,00002170,12f9d463,00010000,00000000,00000000,0
2,2,0,00002174,12f9d463,00010000,00000000,00000000,0
3,3,0,00002174,12f9d463,00000032,00000000,00000000,1
4,4,0,00002174,12f9d463,00000032,00000000,00000000,0
5,5,0,00002178,12f9d463,00000032,00000000,00000000,0
6,6,0,0000217c,12f9d463,00000006,00000000,00000000,0
7,7,0,00002180,12f9d463,00000006,00000000,00000000,0
8,8,0,00002184,12f9d463,00000006,00000000,00000000,0
9,9,0,00002188,12f9d463,00000020,00000000,00000000,0
10,10,0,0000218c,12f9d463,0000001a,00000000,00000000,0
11,11,0,00002190,12f9d463,0000001a,00000000,00000000,0
12,12,0,00002194,12f9d463,0000001a,00000000,00000000,0
13,13,0,00002198,12f9d463,0000001a,00000000,00000000,0
14,14,0,0000219c,12f9d463,0000001a,00000000,00000000,0
15,15,0,000021a0,12f9d463,0000001a,00000000,00000000,0
16,16,0,000021a0,12f9d463,0000001a,00000000,00000000,0
17,17,0,000021a0,12f9d463,0000001a,00000000,00000000,0
18,18,0,000021a0,12f9d463,0000001a,00000000,00000000,0
19,19,0,000021a0,12f9d463,0000001a,00000000,00000000,0
20,20,0,000021a0,12f9d463,0000001a,00000000,00000000,0
21,21,0,000021a0,12f9d463,0000001a,00000000,00000000,0
22,22,0,000021a0,12f9d463,0000001a,00000000,00000000,0
23,23,0,000021a0,12f9d463,0000001a,00000000,00000000,0
24,24,0,000021a0,12f9d463,0000001a,00000000,00000000,0
25,25,0,000021a0,12f9d463,0000001a,00000000,00000000,0
26,26,0,000021a0,12f9d463,0000001a,00000000,00000000,0
27,27,0,000021a0,12f9d463,0000001a,00000000,00000000,0
28,28,0,000021a0,12f9d463,0000001a,00000000,00000000,0
29,29,0,000021a0,12f9d463,0000001a,00000000,00000000,0
30,30,0,000021a0,12f9d463,0000001a,00000000,00000000,0
31,31,0,000021a0,12f9d463,0000001a,00000000,00000000,0
32,32,0,000021a0,12f9d463,0000001a,00000000,00000000,0
33,33,0,000021a0,12f9d463,0000001a,00000000,00000000,0
34,34,0,000021a0,12f9d463,0000001a,00000000,00000000,0
35,35,0,000021a0,12f9d463,0000001a,00000000,00000000,0
36,36,0,000021a0,12f9d463,0000001a,00000000,00000000,0
37,37,0,000021a0,12f9d463,0000001a,00000000,00000000,0
38,38,0,000021a0,12f9d463,0000001a,00000000,00000000,0
39,39,0,000021a0,12f9d463,0000001a,00000000,00000000,0
40,40,0,000021a0,12f9d463,0000001a,00000000,00000000,0
41,41,0,000021a0,12f9d463,0000001a,00000000,00000000,0
42,42,0,000021a0,12f9d463,0000001a,00000000,00000000,0
43,43,0,000021a0,12f9d463,0000001a,00000000,00000000,0
44,44,0,000021a0,12f9d463,0000001a,00000000,00000000,0
45,45,0,000021a0,12f9d463,0000001a,00000000,00000000,0
46,46,0,000021a0,12f9d463,0000001a,00000000,00000000,0
47,47,0,000021a0,12f9d463,0000001a,00000000,00000000,0
48,48,0,000021a0,12f9d463,0000001a,00000000,00000000,0
49,49,0,000021a0,12f9d463,0000001a,00000000,00000000,0
50,50,0,000021a0,12f9d463,0000001a,00000000,00000000,0
51,51,0,000021a0,12f9d463,0000001a,00000000,00000000,0
52,52,0,000021a4,12f9d463,0000001a,00000000,00000000,0
53,53,0,000021a8,12f9d463,0000001a,00000000,00000000,0
54,54,0,000021ac,12f9d463,00001f51,00000000,00000000,0
55,55,0,000021b0,12f9d463,00001f51,00000000,00000000,0
56,56,0,000021b0,12f9d463,00001f51,00000000,00000000,0
57,57,0,000021b0,12f9d463,00001f51,00000000,00000000,0
58,58,0,000021b0,12f9d463,00001f51,00000000,00000000,0
59,59,0,000021b0,12f9d463,00001f51,00000000,00000000,0
60,60,0,000021b0,12f9d463,00001f51,00000000,00000000,0
61,61,0,000021b0,12f9d463,00001f51,00000000,00000000,0
62,62,0,000021b0,12f9d463,00001f51,00000000,00000000,0
63,63,0,000021b0,12f9d463,00001f51,00000000,00000000,0
64,64,0,000021b0,12f9d463,00001f51,00000000,00000000,0
65,65,0,000021b0,12f9d463,00001f51,00000000,00000000,0
66,66,0,000021b0,12f9d463,00001f51,00000000,00000000,0
67,67,0,000021b0,12f9d463,00001f51,00000000,00000000,0
68,68,0,000021b0,12f9d463,00001f51,00000000,00000000,0
69,69,0,000021b0,12f9d463,00001f51,00000000,00000000,0
70,70,0,000021b0,12f9d463,00001f51,00000000,00000000,0
71,71,0,000021b0,12f9d463,00001f51,00000000,00000000,0
72,72,0,000021b0,12f9d463,00001f51,00000000,00000000,0
73,73,0,000021b0,12f9d463,00001f51,00000000,00000000,0
74,74,0,000021b0,12f9d463,00001f51,00000000,00000000,0
75,75,0,000021b0,12f9d463,00001f51,00000000,00000000,0
76,76,0,000021b0,12f9d463,00001f51,00000000,00000000,0
77,77,0,000021b0,12f9d463,00001f51,00000000,00000000,0
78,78,0,000021b0,12f9d463,00001f51,00000000,00000000,0
79,79,0,000021b0,12f9d463,00001f51,00000000,00000000,0
80,80,0,000021b0,12f9d463,00001f51,00000000,00000000,0
81,81,0,000021b0,12f9d463,00001f51,00000000,00000000,0
82,82,0,000021b0,12f9d463,00001f51,00000000,00000000,0
83,83,0,000021b0,12f9d463,00001f51,00000000,00000000,0
84,84,0,000021b0,12f9d463,00001f51,00000000,00000000,0
85,85,0,000021b0,12f9d463,00001f51,00000000,00000000,0
86,86,0,000021b0,12f9d463,00001f51,00000000,00000000,0
87,87,0,000021b0,12f9d463,00001f51,00000000,00000000,0
88,88,0,000021b0,12f9d463,00001f51,00000000,00000000,0
89,89,0,000021b0,12f9d463,00001f51,00000000,00000000,0
90,90,0,000021b0,12f9d463,00001f51,00000000,00000000,0
91,91,0,000021b0,12f9d463,00001f51,00000000,00000000,0
92,92,0,000021b4,12f9d463,00001f51,00000000,00000000,0
93,93,0,000021b8,12f9d463,00001f51,00000000,00000000,0
94,94,0,000021bc,12f9d463,00001f51,00000000,00000000,0
95,95,0,000021bc,12f9d463,1f510000,00000000,00000000,0
96,96,0,000021bc,12f9d463,1f510000,00000000,00000000,0
97,97,0,000021c0,12f9d463,1f510000,00000000,00000000,0
98,98,0,000021c4,12f9d463,1f510000,00000000,00000000,0
99,99,0,000021c8,12f9d463,1f510000,00000000,00000000,0
100,100,0,000021dc,12f9d463,00000061,00000000,00000000,0
101,101,0,000021e0,12f9d463,00000061,00000000,00000000,0
102,102,0,000021e4,12f9d463,00000061,00000000,00000000,0
103,103,0,000021e4,12f9d463,00000061,00000000,00000000,0
104,104,0,000021e4,12f9d463,00000061,00000000,00000000,0
105,105,0,000021e4,12f9d463,00000061,00000000,00000000,0
106,106,0,000021e4,12f9d463,00000061,00000000,00000000,0
107,107,0,000021e4,12f9d463,00000061,00000000,00000000,0
108,108,0,000021e4,12f9d463,00000061,00000000,00000000,0
109,109,0,000021e4,12f9d463,00000061,00000000,00000000,0
110,110,0,000021e4,12f9d463,00000061,00000000,00000000,0
111,111,0,000021e4,12f9d463,00000061,00000000,00000000,0
112,112,0,000021e4,12f9d463,00000061,00000000,00000000,0
113,113,0,000021e4,12f9d463,00000061,00000000,00000000,0
114,114,0,000021e4,12f9d463,00000061,00000000,00000000,0
115,115,0,000021e4,12f9d463,00000061,00000000,00000000,0
116,116,0,000021e4,12f9d463,00000061,00000000,00000000,0
117,117,0,000021e4,12f9d463,00000061,00000000,00000000,0
118,118,0,000021e4,12f9d463,00000061,00000000,00000000,0
119,119,0,000021e4,12f9d463,00000061,00000000,00000000,0
120,120,0,000021e4,12f9d463,00000061,00000000,00000000,0
121,121,0,000021e4,12f9d463,00000061,00000000,00000000,0
122,122,0,000021e4,12f9d463,00000061,00000000,00000000,0
123,123,0,000021e4,12f9d463,00000061,00000000,00000000,0
124,124,0,000021e4,12f9d463,00000061,00000000,00000000,0
125,125,0,000021e4,12f9d463,00000061,00000000,00000000,0
126,126,0,000021e4,12f9d463,00000061,00000000,00000000,0
127,127,0,000021e4,12f9d463,00000061,00000000,00000000,0
128,128,0,000021e4,12f9d463,00000061,00000000,00000000,0
129,129,0,000021e4,12f9d463,00000061,00000000,00000000,0
130,130,0,000021e4,12f9d463,00000061,00000000,00000000,0
131,131,0,000021e4,12f9d463,00000061,00000000,00000000,0
132,132,0,000021e4,12f9d463,00000061,00000000,00000000,0
133,133,0,000021e4,12f9d463,00000061,00000000,00000000,0
134,134,0,000021e4,12f9d463,00000061,00000000,00000000,0
135,135,0,000021e4,12f9d463,00000061,00000000,00000000,0
136,136,0,000021e4,12f9d463,00000061,00000000,00000000,0
137,137,0,000021e4,12f9d463,00000061,00000000,00000000,0
138,138,0,000021e4,12f9d463,00000061,00000000,00000000,0
139,139,0,000021e8,12f9d463,00000061,00000000,00000000,0
140,140,0,000021ec,12f9d463,00000061,00000000,00000000,0
141,141,0,000021f0,12f9d463,00000061,00005c00,00000000,0
142,142,0,000021f0,12f9d463,00000061,00005c00,00000000,0
143,143,0,000021f0,12f9d463,00000061,00005c00,00000000,0
144,144,0,000021f0,12f9d463,00000061,00005c00,00000000,0
145,145,0,000021f0,12f9d463,00000061,00005c00,00000000,0
146,146,0,000021f0,12f9d463,00000061,00005c00,00000000,0
147,147,0,000021f0,12f9d463,00000061,00005c00,00000000,0
148,148,0,000021f0,12f9d463,00000061,00005c00,00000000,0
149,149,0,000021f0,12f9d463,00000061,00005c00,00000000,0
150,150,0,000021f0,12f9d463,00000061,00005c00,00000000,0
151,151,0,000021f0,12f9d463,00000061,00005c00,00000000,0
152,152,0,000021f0,12f9d463,00000061,00005c00,00000000,0
153,153,0,000021f0,12f9d463,00000061,00005c00,00000000,0
154,154,0,000021f0,12f9d463,00000061,00005c00,00000000,0
155,155,0,000021f0,12f9d463,00000061,00005c00,00000000,0
156,156,0,000021f0,12f9d463,00000061,00005c00,00000000,0
157,157,0,000021f0,12f9d463,00000061,00005c00,00000000,0
158,158,0,000021f0,12f9d463,00000061,00005c00,00000000,0
159,159,0,000021f0,12f9d463,00000061,00005c00,00000000,0
160,160,0,000021f0,12f9d463,00000061,00005c00,00000000,0
161,161,0,000021f0,12f9d463,00000061,00005c00,00000000,0
162,162,0,000021f0,12f9d463,00000061,00005c00,00000000,0
163,163,0,000021f0,12f9d463,00000061,00005c00,00000000,0
164,164,0,000021f0,12f9d463,00000061,00005c00,00000000,0
165,165,0,000021f0,12f9d463,00000061,00005c00,00000000,0
166,166,0,000021f0,12f9d463,00000061,00005c00,00000000,0
167,167,0,000021f0,12f9d463,00000061,00005c00,00000000,0
168,168,0,000021f0,12f9d463,00000061,00005c00,00000000,0
169,169,0,000021f0,12f9d463,00000061,00005c00,00000000,0
170,170,0,000021f0,12f9d463,00000061,00005c00,00000000,0
171,171,0,000021f0,12f9d463,00000061,00005c00,00000000,0
172,172,0,000021f0,12f9d463,00000061,00005c00,00000000,0
173,173,0,000021f0,12f9d463,00000061,00005c00,00000000,0
174,174,0,000021f0,12f9d463,00000061,00005c00,00000000,0
175,175,0,000021f0,12f9d463,00000061,00005c00,00000000,0
176,176,0,000021f0,12f9d463,00000061,00005c00,00000000,0
177,177,0,000021f0,12f9d463,00000061,00005c00,00000000,0
178,178,0,000021f4,12f9d463,00000061,00005c00,00000000,0
179,179,0,000021f8,12f9d463,00000061,00005c00,00000000,0
180,180,0,000021fc,12f9d463,00000061,00005c00,00000000,0
181,181,0,000021fc,12f9d463,00000061,5c000000,00000000,0
182,182,0,000021fc,12f9d463,00000061,5c000000,00000000,0
183,183,0,00002200,12f9d463,00000061,5c000000,00000000,0
184,184,0,00002204,12f9d463,00000061,5c000000,00000000,0
185,185,0,00002208,12f9d463,00000061,5c000000,00000000,0
186,186,0,00002218,00002816,00000061,5c000000,00000000,0
187,187,0,0000221c,00002816,00000061,5c000000,00000000,0
188,188,0,00002220,00002816,00000061,5c000000,00000000,0
189,189,0,00002224,00002816,00000061,5c000000,00000000,0
190,190,0,00002228,00002816,00610000,5c000000,00000000,0
191,191,0,0000222c,00002816,00612816,5c000000,00000000,0
192,192,0,00002308,00002816,00612816,5c000000,00000000,0
193,193,0,0000230c,00002816,00612816,5c000000,00000000,0
194,194,0,00002310,00002816,00612816,5c000000,00000000,0
195,195,0,00002314,00002816,00612816,5c000000,00000000,0
196,196,0,00002318,00612816,00612816,5c000000,00000000,0
197,197,0,00002324,00612816,00612816,5c000000,00000000,0
198,198,0,00002328,00612816,00612816,5c000000,00000000,0
199,199,0,0000232c,00612816,00612816,5c000000,00000000,0
200,200,0,0000209c,00612816,00612816,5c000000,00000000,0
201,201,0,000020a0,00612816,00612816,5c000000,00000000,0
202,202,0,000020a4,00612816,00612816,5c000000,00000000,1
203,203,0,000020a4,00612816,00612816,5c000000,00000000,0
204,204,0,000020a8,00612816,00612816,5c000000,00000000,0
205,205,0,000020ac,00612816,00612816,5c000000,00000000,0
206,206,0,00004b78,00612816,00612816,5c000000,00000000,0
207,207,0,00004b7c,00612816,00612816,5c000000,00000000,0
208,208,0,00004b80,00612816,00612816,5c000000,00000000,0
209,209,0,00004b84,00612816,00612816,5c000000,00000000,1
210,210,0,00004b84,00612816,00007000,5c000000,00000000,0
211,211,0,00004b88,00612816,00007000,5c000000,00000000,0
212,212,0,00004b8c,00612816,00007000,5c000000,00000000,0
213,213,0,00004b90,00612816,000f4241,5c000000,00000000,0
214,214,0,00004b94,00612816,000f4241,5c000000,00000000,0
215,215,0,00004b98,00612816,000f4241,5c000000,00000000,0
216,216,0,00004b9c,00612816,000f4241,5c000000,00000000,0
217,217,0,00004ba0,00612816,000f4241,5c000000,00000000,0
218,218,0,00004ba4,00612816,000f4241,5c000000,00000000,0
219,219,0,00004ba8,00612816,000f4241,5c000000,00000000,0
220,220,0,00004bac,00612816,000f4241,5c000000,00000000,1
221,221,0,00004bac,00612816,000f4241,5c000000,00000000,0
222,222,0,00004bb0,00612816,000f4241,5c000000,00000000,0
223,223,0,00004bb4,00612816,000f4241,5c000000,00000000,0
224,224,0,00004bb8,00612816,00006000,5c000000,00000000,0
225,225,0,00004bbc,00612816,00006000,5c000000,000060fc,1
226,226,0,00004bbc,00612816,00000041,5c000000,000060fc,0
227,227,0,00004bc0,00612816,00000041,5c000000,000060fc,0
228,228,0,00004bc4,00612816,00000041,5c000000,000060fc,0
229,229,0,00004bc8,0000ff90,00000041,5c000000,000060fc,1
230,230,0,00004bc8,0000ff90,00000042,5c000000,000060fc,0
231,231,0,00004bcc,0000ff90,00000042,5c000000,000060fc,1
232,232,0,00004bcc,0000ff90,00000042,5c000000,000060fc,0
233,233,0,00004bd0,0000ff90,00000042,5c000000,000060fc,0
234,234,0,00001e98,0000ff90,00000042,5c000000,000060fc,0
235,235,0,00001e9c,0000ff90,00000042,5c000000,000060fc,0
236,236,0,00001ea0,0000ff90,00000042,5c000000,000060fc,1
237,237,0,00001ea0,0000ff90,00000042,5c000000,000060fc,0
238,238,0,00001ea4,0000ff90,00000042,5c000000,000060fc,0
239,239,0,00001ea8,0000ff90,00000044,5c000000,000060fc,0
240,240,0,00001eac,0000ff90,00000044,0000ff90,000060fc,0
241,241,0,00001eb0,0000ff90,00000044,0000ff90,000060fc,0
242,242,0,00001eb4,0000ff90,00000044,0000ff91,000060fc,1
243,243,0,00001eb4,0000ff90,00000044,0000ff91,000060fd,0
244,244,0,00001eb4,0000ff90,00000044,0000ff91,000060fd,1
245,245,0,00001eb4,0000ff90,00000044,0000ff91,000060fd,0
246,246,0,00001eb8,0000ff90,00000044,0000ff91,000060fd,0
247,247,0,00001ebc,0000ff90,00000048,0000ff91,000060fd,0
248,248,0,00001ea4,0000ff90,00000048,0000ff91,000060fd,0
249,249,0,00001ea8,0000ff90,00000048,0000ff91,000060fd,0
250,250,0,00001eac,0000ff90,00000048,0000ff91,000060fd,0
251,251,0,00001eb0,0000ff90,00000048,0000ff91,000060fd,0
252,252,0,00001eb4,0000ff90,00000048,0000ff92,000060fd,1
253,253,0,00001eb4,0000ff90,00000048,0000ff92,000060fe,0
254,254,0,00001eb4,0000ff90,00000048,0000ff92,000060fe,1
255,255,0,00001eb4,0000ff90,00000048,0000ff92,000060fe,0
256,256,0,00001ea4,0000ff90,00000048,0000ff92,000060fe,0
257,257,0,00001ea8,0000ff90,00000052,0000ff92,000060fe,0
258,258,0,00001eac,0000ff90,00000052,0000ff92,000060fe,0
259,259,0,00001eb0,0000ff90,00000052,0000ff92,000060fe,0
260,260,0,00001eb4,0000ff90,00000052,0000ff93,000060fe,1
261,261,0,00001eb4,0000ff90,00000052,0000ff93,000060ff,0
262,262,0,00001eb4,0000ff90,00000052,0000ff93,000060ff,1
263,263,0,00001eb4,0000ff90,00000052,0000ff93,000060ff,0
264,264,0,00001ea4,0000ff90,00000052,0000ff93,000060ff,0
265,265,0,00001ea8,0000ff90,00000059,0000ff93,000060ff,0
266,266,0,00001eac,0000ff90,00000059,0000ff93,000060ff,0
267,267,0,00001eb0,0000ff90,00000059,0000ff93,000060ff,0
268,268,0,00001eb4,0000ff90,00000059,0000ff94,000060ff,1
269,269,0,00001eb4,0000ff90,00000059,0000ff94,00006100,0
270,270,0,00001eb4,0000ff90,00000059,0000ff94,00006100,1
271,271,0,00001eb4,0000ff90,00000059,0000ff94,00006100,0
272,272,0,00001ea4,0000ff90,00000059,0000ff94,00006100,0
273,273,0,00001ea8,0000ff90,00000053,0000ff94,00006100,0
274,274,0,00001eac,0000ff90,00000053,0000ff94,00006100,0
275,275,0,00001eb0,0000ff90,00000053,0000ff94,00006100,0
276,276,0,00001eb4,0000ff90,00000053,0000ff95,00006100,1
277,277,0,00001eb4,0000ff90,00000053,0000ff95,00006101,0
278,278,0,00001eb4,0000ff90,00000053,0000ff95,00006101,1
279,279,0,00001eb4,0000ff90,00000053,0000ff95,00006101,0
280,280,0,00001ea4,0000ff90,00000053,0000ff95,00006101,0
281,281,0,00001ea8,0000ff90,00000054,0000ff95,00006101,0
282,282,0,00001eac,0000ff90,00000054,0000ff95,00006101,0
283,283,0,00001eb0,0000ff90,00000054,0000ff95,00006101,0
284,284,0,00001eb4,0000ff90,00000054,0000ff96,00006101,1
285,285,0,00001eb4,0000ff90,00000054,0000ff96,00006102,0
286,286,0,00001eb4,0000ff90,00000054,0000ff96,00006102,1
287,287,0,00001eb4,0000ff90,00000054,0000ff96,00006102,0
288,288,0,00001ea4,0000ff90,00000054,0000ff96,00006102,0
289,289,0,00001ea8,0000ff90,0000004f,0000ff96,00006102,0
290,290,0,00001eac,0000ff90,0000004f,0000ff96,00006102,0
291,291,0,00001eb0,0000ff90,0000004f,0000ff96,00006102,0
292,292,0,00001eb4,0000ff90,0000004f,0000ff97,00006102,1
293,293,0,00001eb4,0000ff90,0000004f,0000ff97,00006103,0
294,294,0,00001eb4,0000ff90,0000004f,0000ff97,00006103,1
295,295,0,00001eb4,0000ff90,0000004f,0000ff97,00006103,0
296,296,0,00001ea4,0000ff90,0000004f,0000ff97,00006103,0
297,297,0,00001ea8,0000ff90,0000004e,0000ff97,00006103,0
298,298,0,00001eac,0000ff90,0000004e,0000ff97,00006103,0
299,299,0,00001eb0,0000ff90,0000004e,0000ff97,00006103,0
300,300,0,00001eb4,0000ff90,0000004e,0000ff98,00006103,1
301,301,0,00001eb4,0000ff90,0000004e,0000ff98,00006104,0
302,302,0,00001eb4,0000ff90,0000004e,0000ff98,00006104,1
303,303,0,00001eb4,0000ff90,0000004e,0000ff98,00006104,0
304,304,0,00001ea4,0000ff90,0000004e,0000ff98,00006104,0
305,305,0,00001ea8,0000ff90,00000045,0000ff98,00006104,0
306,306,0,00001eac,0000ff90,00000045,0000ff98,00006104,0
307,307,0,00001eb0,0000ff90,00000045,0000ff98,00006104,0
308,308,0,00001eb4,0000ff90,00000045,0000ff99,00006104,1
309,309,0,00001eb4,0000ff90,00000045,0000ff99,00006105,0
310,310,0,00001eb4,0000ff90,00000045,0000ff99,00006105,1
311,311,0,00001eb4,0000ff90,00000045,0000ff99,00006105,0
312,312,0,00001ea4,0000ff90,00000045,0000ff99,00006105,0
313,313,0,00001ea8,0000ff90,00000020,0000ff99,00006105,0
314,314,0,00001eac,0000ff90,00000020,0000ff99,00006105,0
315,315,0,00001eb0,0000ff90,00000020,0000ff99,00006105,0
316,316,0,00001eb4,0000ff90,00000020,0000ff9a,00006105,1
317,317,0,00001eb4,0000ff90,00000020,0000ff9a,00006106,0
318,318,0,00001eb4,0000ff90,00000020,0000ff9a,00006106,1
319,319,0,00001eb4,0000ff90,00000020,0000ff9a,00006106,0
320,320,0,00001ea4,0000ff90,00000020,0000ff9a,00006106,0
321,321,0,00001ea8,0000ff90,00000050,0000ff9a,00006106,0
322,322,0,00001eac,0000ff90,00000050,0000ff9a,00006106,0
323,323,0,00001eb0,0000ff90,00000050,0000ff9a,00006106,0
324,324,0,00001eb4,0000ff90,00000050,0000ff9b,00006106,1
325,325,0,00001eb4,0000ff90,00000050,0000ff9b,00006107,0
326,326,0,00001eb4,0000ff90,00000050,0000ff9b,00006107,1
327,327,0,00001eb4,0000ff90,00000050,0000ff9b,00006107,0
328,328,0,00001ea4,0000ff90,00000050,0000ff9b,00006107,0
329,329,0,00001ea8,0000ff90,00000052,0000ff9b,00006107,0
330,330,0,00001eac,0000ff90,00000052,0000ff9b,00006107,0
331,331,0,00001eb0,0000ff90,00000052,0000ff9b,00006107,0
332,332,0,00001eb4,0000ff90,00000052,0000ff9c,00006107,1
333,333,0,00001eb4,0000ff90,00000052,0000ff9c,00006108,0
334,334,0,00001eb4,0000ff90,00000052,0000ff9c,00006108,1
335,335,0,00001eb4,0000ff90,00000052,0000ff9c,00006108,0
336,336,0,00001ea4,0000ff90,00000052,0000ff9c,00006108,0
337,337,0,00001ea8,0000ff90,0000004f,0000ff9c,00006108,0
338,338,0,00001eac,0000ff90,0000004f,0000ff9c,00006108,0
339,339,0,00001eb0,0000ff90,0000004f,0000ff9c,00006108,0
340,340,0,00001eb4,0000ff90,0000004f,0000ff9d,00006108,1
