Sample in Buffer,Sample in Window,TRIGGER,Aquila_SoC/RISCV_CORE0/Decode/pc_o[31:0],Aquila_SoC/RISCV_CORE0/exe_branch_misprediction
Radix - UNSIGNED,UNSIGNED,UNSIGNED,HEX,HEX
0,0,1,00001000,0
1,1,0,00001004,0
2,2,0,00001008,0
3,3,0,00001008,0
4,4,0,0000100c,0
5,5,0,00001010,0
6,6,0,00001010,0
7,7,0,00001014,0
8,8,0,00001018,0
9,9,0,00001018,0
10,10,0,0000101c,0
11,11,0,00001020,0
12,12,0,00004ce0,0
13,13,0,00004ce4,0
14,14,0,00004ce8,0
15,15,0,00004cec,0
16,16,0,00004cec,0
17,17,0,00004cf0,0
18,18,0,00004cf0,0
19,19,0,00004cf4,0
20,20,0,00004cf4,0
21,21,0,00004cf8,0
22,22,0,00004cfc,0
23,23,0,00004cfc,0
24,24,0,00004d00,0
25,25,0,00004d00,0
26,26,0,00004d04,0
27,27,0,00004d04,0
28,28,0,00004d08,0
29,29,0,00004d08,0
30,30,0,00004d0c,0
31,31,0,00004d0c,0
32,32,0,00004d10,0
33,33,0,00004d10,0
34,34,0,00004d14,0
35,35,0,00004d14,0
36,36,0,00004d18,0
37,37,0,00004d18,0
38,38,0,00004d1c,0
39,39,0,00004d1c,0
40,40,0,00004d20,0
41,41,0,00004d20,0
42,42,0,00004d24,0
43,43,0,00004d28,0
44,44,0,00001b78,0
45,45,0,00001b7c,0
46,46,0,00001b80,0
47,47,0,00001b84,0
48,48,0,00001b84,0
49,49,0,00001b88,0
50,50,0,00001b88,0
51,51,0,00001b88,0
52,52,0,00001b8c,0
53,53,0,00001b90,0
54,54,0,00001c28,0
55,55,0,00001c2c,0
56,56,0,00001c30,0
57,57,0,00001c34,0
58,58,0,00001c34,0
59,59,0,00001c38,0
60,60,0,00001c38,0
61,61,0,00001c3c,0
62,62,0,00001c3c,0
63,63,0,00001c40,0
64,64,0,00001c44,0
65,65,0,00001c48,0
66,66,0,00001c48,0
67,67,0,00001c4c,0
68,68,0,00001c4c,0
69,69,0,00001c50,0
70,70,0,00001c54,0
71,71,0,00001c58,0
72,72,0,00001b94,0
73,73,0,00001b98,0
74,74,0,00001b98,0
75,75,0,00001b98,0
76,76,0,00001b9c,0
77,77,0,00001ba0,0
78,78,0,00001ba4,0
79,79,0,00001ba8,0
80,80,0,00001bac,0
81,81,0,00001be4,0
82,82,0,00001be8,0
83,83,0,00001bec,0
84,84,0,00001bf0,0
85,85,0,00001bf4,0
86,86,0,00001bf8,0
87,87,0,00001bfc,0
88,88,0,00001c00,0
89,89,0,00001c04,0
90,90,0,00001c08,0
91,91,0,00001c08,0
92,92,0,00001c0c,0
93,93,0,00001c10,0
94,94,0,00001c10,0
95,95,0,00001c14,0
96,96,0,00001c18,0
97,97,0,00001c18,0
98,98,0,00001c1c,0
99,99,0,00001c20,0
100,100,0,00001c24,0
101,101,0,00001c28,0
102,102,0,00001c2c,0
103,103,0,00004d24,0
104,104,0,00004d28,0
105,105,0,00004d28,0
106,106,0,00004d2c,0
107,107,0,00004d30,0
108,108,0,00004d34,0
109,109,0,00001b78,0
110,110,0,00001b7c,0
111,111,0,00001b80,0
112,112,0,00001b84,0
113,113,0,00001b84,0
114,114,0,00001b88,0
115,115,0,00001b88,0
116,116,0,00001b88,1
117,117,0,00001c28,0
118,118,0,00001c2c,0
119,119,0,00001b8c,0
120,120,0,00001b90,0
121,121,0,00001b94,0
122,122,0,00001b98,0
123,123,0,00001b98,0
124,124,0,00001b98,0
125,125,0,00001b9c,0
126,126,0,00001ba0,0
127,127,0,00001ba4,0
128,128,0,00001be4,0
129,129,0,00001be8,0
130,130,0,00001bec,0
131,131,0,00001bf0,0
132,132,0,00001bf4,0
133,133,0,00001bf8,0
134,134,0,00001bfc,0
135,135,0,00001c00,0
136,136,0,00001c04,0
137,137,0,00001c08,0
138,138,0,00001c08,0
139,139,0,00001c0c,0
140,140,0,00001c10,0
141,141,0,00001c10,0
142,142,0,00001c14,0
143,143,0,00001c18,0
144,144,0,00001c18,0
145,145,0,00001c1c,0
146,146,0,00001c20,0
147,147,0,00001c24,0
148,148,0,00001c28,0
149,149,0,00001c2c,0
150,150,0,00004d30,0
151,151,0,00004d34,0
152,152,0,00004d34,0
153,153,0,00004d38,0
154,154,0,00004d3c,0
155,155,0,00004d3c,0
156,156,0,00004d40,0
157,157,0,00004d40,0
158,158,0,00004d44,0
159,159,0,00004d48,0
160,160,0,00004d48,0
161,161,0,00004d4c,0
162,162,0,00004d50,0
163,163,0,00004d54,0
164,164,0,00004d54,0
165,165,0,00004d58,0
166,166,0,00004d5c,0
167,167,0,00004d5c,0
168,168,0,00004d60,0
169,169,0,00004d64,0
170,170,0,00004d68,0
171,171,0,00001dd0,0
172,172,0,00001dd4,0
173,173,0,00001dd8,0
174,174,0,00001ddc,0
175,175,0,00001de0,0
176,176,0,00001de4,0
177,177,0,00001de4,0
178,178,0,00001de8,0
179,179,0,00001dec,0
180,180,0,00001df0,0
181,181,0,00001df4,0
182,182,0,00001df8,0
183,183,0,00001dfc,0
184,184,0,00001e00,0
185,185,0,00001e04,0
186,186,0,00001e08,0
187,187,0,00001e0c,0
188,188,0,00001e10,0
189,189,0,00001e14,0
190,190,0,00001e18,0
191,191,0,00001e18,0
192,192,0,00001e1c,0
193,193,0,00001e1c,0
194,194,0,00001e1c,0
195,195,0,00001e20,0
196,196,0,00001e24,0
197,197,0,00001e28,0
198,198,0,00001e2c,0
199,199,0,00001e30,0
200,200,0,00001e34,0
201,201,0,00001e0c,0
202,202,0,00001e10,0
203,203,0,00001e14,0
204,204,0,00001e18,0
205,205,0,00001e18,0
206,206,0,00001e1c,0
207,207,0,00001e1c,0
208,208,0,00001e1c,0
209,209,0,00001e20,0
210,210,0,00001e24,0
211,211,0,00001e28,0
212,212,0,00001e2c,0
213,213,0,00001e0c,0
214,214,0,00001e10,0
215,215,0,00001e14,0
216,216,0,00001e18,0
217,217,0,00001e18,0
218,218,0,00001e1c,0
219,219,0,00001e1c,0
220,220,0,00001e1c,0
221,221,0,00001e20,0
222,222,0,00001e24,0
223,223,0,00001e28,0
224,224,0,00001e2c,0
225,225,0,00001e0c,0
226,226,0,00001e10,0
227,227,0,00001e14,0
228,228,0,00001e18,0
229,229,0,00001e18,0
230,230,0,00001e1c,0
231,231,0,00001e1c,0
232,232,0,00001e1c,0
233,233,0,00001e20,0
234,234,0,00001e24,0
235,235,0,00001e28,0
236,236,0,00001e2c,0
237,237,0,00001e0c,0
238,238,0,00001e10,0
239,239,0,00001e14,0
240,240,0,00001e18,0
241,241,0,00001e18,0
242,242,0,00001e1c,0
243,243,0,00001e1c,0
244,244,0,00001e1c,0
245,245,0,00001e20,0
246,246,0,00001e24,0
247,247,0,00001e28,0
248,248,0,00001e2c,0
249,249,0,00001e0c,0
250,250,0,00001e10,0
251,251,0,00001e14,0
252,252,0,00001e18,0
253,253,0,00001e18,0
254,254,0,00001e1c,0
255,255,0,00001e1c,0
256,256,0,00001e1c,0
257,257,0,00001e20,0
258,258,0,00001e24,0
259,259,0,00001e28,0
260,260,0,00001e2c,0
261,261,0,00001e0c,0
262,262,0,00001e10,0
263,263,0,00001e14,0
264,264,0,00001e18,0
265,265,0,00001e18,0
266,266,0,00001e1c,0
267,267,0,00001e1c,0
268,268,0,00001e1c,0
269,269,0,00001e20,0
270,270,0,00001e24,0
271,271,0,00001e28,0
272,272,0,00001e2c,1
273,273,0,00001e0c,0
274,274,0,00001e10,0
275,275,0,00001e30,0
276,276,0,00001e34,0
277,277,0,00001e38,0
278,278,0,00001e38,0
279,279,0,00001e3c,0
280,280,0,00001e40,0
281,281,0,00001e40,0
282,282,0,00001e44,0
283,283,0,00001e48,0
284,284,0,00001e30,0
285,285,0,00001e34,0
286,286,0,00001e38,0
287,287,0,00001e38,0
288,288,0,00001e3c,0
289,289,0,00001e40,0
290,290,0,00001e40,0
291,291,0,00001e30,0
292,292,0,00001e34,0
293,293,0,00001e38,0
294,294,0,00001e38,0
295,295,0,00001e3c,0
296,296,0,00001e40,1
297,297,0,00001e40,1
298,298,0,00001e30,0
299,299,0,00001e34,0
300,300,0,00001e44,0
301,301,0,00001e48,0
302,302,0,00001e4c,0
303,303,0,00004d64,0
304,304,0,00004d68,0
305,305,0,00004d6c,0
306,306,0,00004d70,0
307,307,0,00004d74,0
308,308,0,00004d78,0
309,309,0,00001dd0,0
310,310,0,00001dd4,0
311,311,0,00001dd8,0
312,312,0,00001ddc,0
313,313,0,00001de0,0
314,314,0,00001de4,0
315,315,0,00001de4,0
316,316,0,00001de8,0
317,317,0,00001dec,0
318,318,0,00001df0,0
319,319,0,00001df4,0
320,320,0,00001df8,0
321,321,0,00001dfc,0
322,322,0,00001e00,0
323,323,0,00001e04,0
324,324,0,00001e08,0
325,325,0,00001e0c,0
326,326,0,00001e10,0
327,327,0,00001e14,0
328,328,0,00001e18,0
329,329,0,00001e18,0
330,330,0,00001e1c,0
331,331,0,00001e1c,0
332,332,0,00001e1c,0
333,333,0,00001e20,0
334,334,0,00001e24,0
335,335,0,00001e28,0
336,336,0,00001e2c,0
337,337,0,00001e0c,0
338,338,0,00001e10,0
339,339,0,00001e14,0
340,340,0,00001e18,0
341,341,0,00001e18,0
342,342,0,00001e1c,0
343,343,0,00001e1c,0
344,344,0,00001e1c,0
345,345,0,00001e20,0
346,346,0,00001e24,0
347,347,0,00001e28,0
348,348,0,00001e2c,0
349,349,0,00001e0c,0
350,350,0,00001e10,0
351,351,0,00001e14,0
352,352,0,00001e18,0
353,353,0,00001e18,0
354,354,0,00001e1c,0
355,355,0,00001e1c,0
356,356,0,00001e1c,0
357,357,0,00001e20,0
358,358,0,00001e24,0
359,359,0,00001e28,0
360,360,0,00001e2c,0
361,361,0,00001e0c,0
362,362,0,00001e10,0
363,363,0,00001e14,0
364,364,0,00001e18,0
365,365,0,00001e18,0
366,366,0,00001e1c,0
367,367,0,00001e1c,0
368,368,0,00001e1c,0
369,369,0,00001e20,0
370,370,0,00001e24,0
371,371,0,00001e28,0
372,372,0,00001e2c,0
373,373,0,00001e0c,0
374,374,0,00001e10,0
375,375,0,00001e14,0
376,376,0,00001e18,0
377,377,0,00001e18,0
378,378,0,00001e1c,0
379,379,0,00001e1c,0
380,380,0,00001e1c,0
381,381,0,00001e20,0
382,382,0,00001e24,0
383,383,0,00001e28,0
384,384,0,00001e2c,0
385,385,0,00001e0c,0
386,386,0,00001e10,0
387,387,0,00001e14,0
388,388,0,00001e18,0
389,389,0,00001e18,0
390,390,0,00001e1c,0
391,391,0,00001e1c,0
392,392,0,00001e1c,0
393,393,0,00001e20,0
394,394,0,00001e24,0
395,395,0,00001e28,0
396,396,0,00001e2c,0
397,397,0,00001e0c,0
398,398,0,00001e10,0
399,399,0,00001e14,0
400,400,0,00001e18,0
401,401,0,00001e18,0
402,402,0,00001e1c,0
403,403,0,00001e1c,0
404,404,0,00001e1c,0
405,405,0,00001e20,0
406,406,0,00001e24,0
407,407,0,00001e28,0
408,408,0,00001e2c,1
409,409,0,00001e0c,0
410,410,0,00001e10,0
411,411,0,00001e30,0
412,412,0,00001e34,0
413,413,0,00001e38,0
414,414,0,00001e38,0
415,415,0,00001e3c,0
416,416,0,00001e40,0
417,417,0,00001e40,0
418,418,0,00001e30,0
419,419,0,00001e34,0
420,420,0,00001e38,0
421,421,0,00001e38,0
422,422,0,00001e3c,0
423,423,0,00001e40,0
424,424,0,00001e40,0
425,425,0,00001e30,0
426,426,0,00001e34,0
427,427,0,00001e38,0
428,428,0,00001e38,0
429,429,0,00001e3c,0
430,430,0,00001e40,1
431,431,0,00001e40,1
432,432,0,00001e30,0
433,433,0,00001e34,0
434,434,0,00001e44,0
435,435,0,00001e48,0
436,436,0,00001e4c,0
437,437,0,00004d74,0
438,438,0,00004d78,0
439,439,0,00004d7c,0
440,440,0,00004d80,0
441,441,0,00004d84,0
442,442,0,00004d88,0
443,443,0,00004d8c,0
444,444,0,00004d8c,0
445,445,0,00004d90,0
446,446,0,00004d94,0
447,447,0,00001860,0
448,448,0,00001864,0
449,449,0,00001868,0
450,450,0,00001868,0
451,451,0,0000186c,0
452,452,0,0000186c,0
453,453,0,00001870,0
454,454,0,00001870,0
455,455,0,00001874,0
456,456,0,00001874,0
457,457,0,00001878,0
458,458,0,00001878,0
459,459,0,0000187c,0
460,460,0,0000187c,0
461,461,0,00001880,0
462,462,0,00001880,0
463,463,0,00001884,0
464,464,0,00001884,0
465,465,0,00001888,0
466,466,0,00001888,0
467,467,0,0000188c,0
468,468,0,0000188c,0
469,469,0,00001890,0
470,470,0,00001890,0
471,471,0,00001894,0
472,472,0,00001894,0
473,473,0,00001898,0
474,474,0,00001898,0
475,475,0,0000189c,0
476,476,0,0000189c,0
477,477,0,000018a0,0
478,478,0,000018a0,0
479,479,0,000018a4,0
480,480,0,000018a4,0
481,481,0,000018a8,0
482,482,0,000018a8,0
483,483,0,000018ac,0
484,484,0,000018ac,0
485,485,0,000018b0,0
486,486,0,000018b0,0
487,487,0,000018b4,0
488,488,0,000018b4,0
489,489,0,000018b8,0
490,490,0,000018bc,0
491,491,0,000018c0,0
492,492,0,000018c0,0
493,493,0,000018c4,0
494,494,0,000018c4,0
495,495,0,000018c8,0
496,496,0,000018cc,0
497,497,0,000018cc,0
498,498,0,000018d0,0
499,499,0,000018d4,0
500,500,0,000018d8,0
501,501,0,000018dc,0
502,502,0,000018e0,0
503,503,0,000018e4,0
504,504,0,000018e8,0
505,505,0,000018ec,0
506,506,0,000018f0,0
507,507,0,000018f4,0
508,508,0,000018f8,0
509,509,0,000018fc,0
510,510,0,00001900,0
511,511,0,00001914,0
512,512,0,00001918,0
513,513,0,0000191c,0
514,514,0,00001920,0
515,515,0,000018fc,0
516,516,0,00001900,0
517,517,0,00001904,0
518,518,0,00002328,0
519,519,0,0000232c,0
520,520,0,00002330,0
521,521,0,00002334,0
522,522,0,00002348,0
523,523,0,0000234c,0
524,524,0,00002350,0
525,525,0,00002350,0
526,526,0,00002350,0
527,527,0,00002354,0
528,528,0,00002358,0
529,529,0,0000235c,0
530,530,0,0000234c,0
531,531,0,00002350,0
532,532,0,00002350,0
533,533,0,00002350,0
534,534,0,00002354,0
535,535,0,0000234c,0
536,536,0,00002350,0
537,537,0,00002350,0
538,538,0,00002350,0
539,539,0,00002354,0
540,540,0,0000234c,0
541,541,0,00002350,0
542,542,0,00002350,0
543,543,0,00002350,0
544,544,0,00002354,0
545,545,0,0000234c,0
546,546,0,00002350,0
547,547,0,00002350,0
548,548,0,00002350,0
549,549,0,00002354,0
550,550,0,0000234c,0
551,551,0,00002350,0
552,552,0,00002350,0
553,553,0,00002350,0
554,554,0,00002354,0
555,555,0,0000234c,0
556,556,0,00002350,0
557,557,0,00002350,0
558,558,0,00002350,0
559,559,0,00002354,0
560,560,0,0000234c,0
561,561,0,00002350,0
562,562,0,00002350,0
563,563,0,00002350,0
564,564,0,00002354,0
565,565,0,0000234c,0
566,566,0,00002350,0
567,567,0,00002350,0
568,568,0,00002350,0
569,569,0,00002354,0
570,570,0,0000234c,0
571,571,0,00002350,0
572,572,0,00002350,0
573,573,0,00002350,0
574,574,0,00002354,0
575,575,0,0000234c,0
576,576,0,00002350,0
577,577,0,00002350,0
578,578,0,00002350,0
579,579,0,00002354,0
580,580,0,0000234c,0
581,581,0,00002350,0
582,582,0,00002350,0
583,583,0,00002350,0
584,584,0,00002354,0
585,585,0,0000234c,0
586,586,0,00002350,0
587,587,0,00002350,0
588,588,0,00002350,0
589,589,0,00002354,0
590,590,0,0000234c,0
591,591,0,00002350,0
592,592,0,00002350,0
593,593,0,00002350,0
594,594,0,00002354,0
595,595,0,0000234c,0
596,596,0,00002350,0
597,597,0,00002350,0
598,598,0,00002350,0
599,599,0,00002354,0
600,600,0,0000234c,0
601,601,0,00002350,0
602,602,0,00002350,0
603,603,0,00002350,0
604,604,0,00002354,0
605,605,0,0000234c,0
606,606,0,00002350,0
607,607,0,00002350,0
608,608,0,00002350,0
609,609,0,00002354,0
610,610,0,0000234c,0
611,611,0,00002350,0
612,612,0,00002350,0
613,613,0,00002350,0
614,614,0,00002354,0
615,615,0,0000234c,0
616,616,0,00002350,0
617,617,0,00002350,0
618,618,0,00002350,0
619,619,0,00002354,0
620,620,0,0000234c,0
621,621,0,00002350,0
622,622,0,00002350,0
623,623,0,00002350,0
624,624,0,00002354,0
625,625,0,0000234c,0
626,626,0,00002350,0
627,627,0,00002350,0
628,628,0,00002350,0
629,629,0,00002354,0
630,630,0,0000234c,0
631,631,0,00002350,0
632,632,0,00002350,0
633,633,0,00002350,0
634,634,0,00002354,0
635,635,0,0000234c,0
636,636,0,00002350,0
637,637,0,00002350,0
638,638,0,00002350,0
639,639,0,00002354,0
640,640,0,0000234c,0
641,641,0,00002350,0
642,642,0,00002350,0
643,643,0,00002350,0
644,644,0,00002354,0
645,645,0,0000234c,0
646,646,0,00002350,0
647,647,0,00002350,0
648,648,0,00002350,0
649,649,0,00002354,0
650,650,0,0000234c,0
651,651,0,00002350,0
652,652,0,00002350,0
653,653,0,00002350,0
654,654,0,00002354,0
655,655,0,0000234c,0
656,656,0,00002350,0
657,657,0,00002350,0
658,658,0,00002350,0
659,659,0,00002354,0
660,660,0,0000234c,0
661,661,0,00002350,0
662,662,0,00002350,0
663,663,0,00002350,0
664,664,0,00002354,0
665,665,0,0000234c,0
666,666,0,00002350,0
667,667,0,00002350,0
668,668,0,00002350,0
669,669,0,00002354,0
670,670,0,0000234c,0
671,671,0,00002350,0
672,672,0,00002350,0
673,673,0,00002350,0
674,674,0,00002354,0
675,675,0,0000234c,0
676,676,0,00002350,0
677,677,0,00002350,0
678,678,0,00002350,0
679,679,0,00002354,0
680,680,0,0000234c,0
681,681,0,00002350,0
682,682,0,00002350,0
683,683,0,00002350,0
684,684,0,00002354,0
685,685,0,0000234c,0
686,686,0,00002350,0
687,687,0,00002350,0
688,688,0,00002350,0
689,689,0,00002354,0
690,690,0,0000234c,0
691,691,0,00002350,0
692,692,0,00002350,0
693,693,0,00002350,0
694,694,0,00002354,0
695,695,0,0000234c,0
696,696,0,00002350,0
697,697,0,00002350,0
698,698,0,00002350,0
699,699,0,00002354,0
700,700,0,0000234c,0
701,701,0,00002350,0
702,702,0,00002350,0
703,703,0,00002350,0
704,704,0,00002354,0
705,705,0,0000234c,0
706,706,0,00002350,0
707,707,0,00002350,0
708,708,0,00002350,0
709,709,0,00002354,0
710,710,0,0000234c,0
711,711,0,00002350,0
712,712,0,00002350,0
713,713,0,00002350,0
714,714,0,00002354,0
715,715,0,0000234c,0
716,716,0,00002350,0
717,717,0,00002350,0
718,718,0,00002350,0
719,719,0,00002354,0
720,720,0,0000234c,0
721,721,0,00002350,0
722,722,0,00002350,0
723,723,0,00002350,0
724,724,0,00002354,0
725,725,0,0000234c,0
726,726,0,00002350,0
727,727,0,00002350,0
728,728,0,00002350,0
729,729,0,00002354,0
730,730,0,0000234c,0
731,731,0,00002350,0
732,732,0,00002350,0
733,733,0,00002350,0
734,734,0,00002354,0
735,735,0,0000234c,0
736,736,0,00002350,0
737,737,0,00002350,0
738,738,0,00002350,0
739,739,0,00002354,0
740,740,0,0000234c,0
741,741,0,00002350,0
742,742,0,00002350,0
743,743,0,00002350,0
744,744,0,00002354,0
745,745,0,0000234c,0
746,746,0,00002350,0
747,747,0,00002350,0
748,748,0,00002350,0
749,749,0,00002354,0
750,750,0,0000234c,0
751,751,0,00002350,0
752,752,0,00002350,0
753,753,0,00002350,0
754,754,0,00002354,0
755,755,0,0000234c,0
756,756,0,00002350,0
757,757,0,00002350,0
758,758,0,00002350,0
759,759,0,00002354,0
760,760,0,0000234c,0
761,761,0,00002350,0
762,762,0,00002350,0
763,763,0,00002350,0
764,764,0,00002354,0
765,765,0,0000234c,0
766,766,0,00002350,0
767,767,0,00002350,0
768,768,0,00002350,0
769,769,0,00002354,0
770,770,0,0000234c,0
771,771,0,00002350,0
772,772,0,00002350,0
773,773,0,00002350,0
774,774,0,00002354,0
775,775,0,0000234c,0
776,776,0,00002350,0
777,777,0,00002350,0
778,778,0,00002350,0
779,779,0,00002354,0
780,780,0,0000234c,0
781,781,0,00002350,0
782,782,0,00002350,0
783,783,0,00002350,0
784,784,0,00002354,0
785,785,0,0000234c,0
786,786,0,00002350,0
787,787,0,00002350,0
788,788,0,00002350,0
789,789,0,00002354,0
790,790,0,0000234c,0
791,791,0,00002350,0
792,792,0,00002350,0
793,793,0,00002350,0
794,794,0,00002354,0
795,795,0,0000234c,0
796,796,0,00002350,0
797,797,0,00002350,0
798,798,0,00002350,0
799,799,0,00002354,0
800,800,0,0000234c,0
801,801,0,00002350,0
802,802,0,00002350,0
803,803,0,00002350,0
804,804,0,00002354,0
805,805,0,0000234c,0
806,806,0,00002350,0
807,807,0,00002350,0
808,808,0,00002350,0
809,809,0,00002354,0
810,810,0,0000234c,0
811,811,0,00002350,0
812,812,0,00002350,0
813,813,0,00002350,0
814,814,0,00002354,0
815,815,0,0000234c,0
816,816,0,00002350,0
817,817,0,00002350,0
818,818,0,00002350,0
819,819,0,00002354,0
820,820,0,0000234c,0
821,821,0,00002350,0
822,822,0,00002350,0
823,823,0,00002350,0
824,824,0,00002354,0
825,825,0,0000234c,0
826,826,0,00002350,0
827,827,0,00002350,0
828,828,0,00002350,0
829,829,0,00002354,0
830,830,0,0000234c,0
831,831,0,00002350,0
832,832,0,00002350,0
833,833,0,00002350,0
834,834,0,00002354,0
835,835,0,0000234c,0
836,836,0,00002350,0
837,837,0,00002350,0
838,838,0,00002350,0
839,839,0,00002354,0
840,840,0,0000234c,0
841,841,0,00002350,0
842,842,0,00002350,0
843,843,0,00002350,0
844,844,0,00002354,0
845,845,0,0000234c,0
846,846,0,00002350,0
847,847,0,00002350,0
848,848,0,00002350,0
849,849,0,00002354,0
850,850,0,0000234c,0
851,851,0,00002350,0
852,852,0,00002350,0
853,853,0,00002350,0
854,854,0,00002354,0
855,855,0,0000234c,0
856,856,0,00002350,0
857,857,0,00002350,0
858,858,0,00002350,0
859,859,0,00002354,0
860,860,0,0000234c,0
861,861,0,00002350,0
862,862,0,00002350,0
863,863,0,00002350,0
864,864,0,00002354,0
865,865,0,0000234c,0
866,866,0,00002350,0
867,867,0,00002350,0
868,868,0,00002350,0
869,869,0,00002354,0
870,870,0,0000234c,0
871,871,0,00002350,0
872,872,0,00002350,0
873,873,0,00002350,0
874,874,0,00002354,0
875,875,0,0000234c,0
876,876,0,00002350,0
877,877,0,00002350,0
878,878,0,00002350,0
879,879,0,00002354,0
880,880,0,0000234c,0
881,881,0,00002350,0
882,882,0,00002350,0
883,883,0,00002350,0
884,884,0,00002354,0
885,885,0,0000234c,0
886,886,0,00002350,0
887,887,0,00002350,0
888,888,0,00002350,0
889,889,0,00002354,0
890,890,0,0000234c,0
891,891,0,00002350,0
892,892,0,00002350,0
893,893,0,00002350,0
894,894,0,00002354,0
895,895,0,0000234c,0
896,896,0,00002350,0
897,897,0,00002350,0
898,898,0,00002350,0
899,899,0,00002354,0
900,900,0,0000234c,0
901,901,0,00002350,0
902,902,0,00002350,0
903,903,0,00002350,0
904,904,0,00002354,0
905,905,0,0000234c,0
906,906,0,00002350,0
907,907,0,00002350,0
908,908,0,00002350,0
909,909,0,00002354,0
910,910,0,0000234c,0
